
T116C 000:033 SEGGER J-Link V4.76d Log File (0000ms, 0032ms total)
T116C 000:033 DLL Compiled: Sep 13 2013 16:35:06 (0000ms, 0032ms total)
T116C 000:033 Logging started @ 2014-03-27 23:56 (0000ms, 0032ms total)
T116C 000:034 JLINK_SetWarnOutHandler(...) (0000ms, 0032ms total)
T116C 000:034 JLINK_OpenEx(...)
Firmware: J-Link ARM V8 compiled Jul 17 2013 11:24:15
Hardware: V8.00
S/N: 17935099
Feature(s): RDI,FlashDL,FlashBP,JFlash  returns O.K. (0015ms, 0047ms total)
T116C 000:049 JLINK_SetErrorOutHandler(...) (0000ms, 0047ms total)
T116C 000:049 JLINK_ExecCommand("ProjectFile = "D:\Work\TnTech\LED driver+RTC\firmware and utility\CPUSTM32_V1.1\Adj\Project\V1.1\MDK-ARM\JLinkSettings.ini"", ...)  returns 0x00 (0001ms, 0048ms total)
T116C 000:050 JLINK_ExecCommand("Device = STM32F100C6", ...)
                JLINK_AddMirrorAreaEx(Addr = 0x00000000, Size = 0x00000000) (0000ms, 0000ms total)
              Device "STM32F100C6" selected (32 KB flash, 4 KB RAM).  returns 0x00 (0001ms, 0049ms total)
T116C 000:051 JLINK_ExecCommand("DisableConnectionTimeout", ...)  returns 0x01 (0000ms, 0049ms total)
T116C 000:051 JLINK_GetHardwareVersion()  returns 0x13880 (0000ms, 0049ms total)
T116C 000:051 JLINK_GetDLLVersion()  returns 47604 (0000ms, 0049ms total)
T116C 000:051 JLINK_GetFirmwareString(...) (0000ms, 0049ms total)
T116C 000:052 JLINK_GetDLLVersion()  returns 47604 (0000ms, 0049ms total)
T116C 000:052 JLINK_GetCompileDateTime() (0000ms, 0049ms total)
T116C 000:052 JLINK_GetFirmwareString(...) (0000ms, 0049ms total)
T116C 000:052 JLINK_GetHardwareVersion()  returns 0x13880 (0000ms, 0049ms total)
T116C 000:053 JLINK_TIF_Select(JLINKARM_TIF_JTAG)  returns 0x00 (0000ms, 0049ms total)
T116C 000:053 JLINK_SetSpeed(2000) (0001ms, 0050ms total)
T116C 000:054 JLINK_GetIdData(...) >0x2F8 JTAG>TotalIRLen = 9, IRPrint = 0x0011 >0x30 JTAG> >0x210 JTAG> >0x40 JTAG> >0x40 JTAG> >0x40 JTAG> >0x30 JTAG> >0x40 JTAG> >0x40 JTAG> >0x40 JTAG> >0x40 JTAG> >0x40 JTAG> >0x40 JTAG> >0x40 JTAG> >0x40 JTAG> >0x2F8 JTAG>TotalIRLen = 9, IRPrint = 0x0011 >0x30 JTAG> >0x210 JTAG> >0x70 JTAG> >0x40 JTAG> >0x40 JTAG> >0x40 JTAG> >0x50 JTAG> >0x80 JTAG> >0x40 JTAG> >0x30 JTAG> >0x40 JTAG> >0x40 JTAG> >0x30 JTAG> >0x40 JTAG> >0x50 JTAG>
Found Cortex-M3 r1p1, Little endian. -- CPU_WriteMem(4 bytes @ 0xE0002000) -- CPU_ReadMem(4 bytes @ 0xE000EDF0) -- CPU_ReadMem(4 bytes @ 0xE0002000)FPUnit: 6 code (BP) slots and 2 literal slots -- CPU_ReadMem(4 bytes @ 0xE000EDFC) -- CPU_ReadMem(4 bytes @ 0xE0001000) -- CPU_WriteMem(4 bytes @ 0xE0001000) -- CPU_ReadMem(4 bytes @ 0xE00FF010)TPIU fitted. -- CPU_ReadMem(4 bytes @ 0xE00FF014) -- CPU_ReadMem(4 bytes @ 0xE00FF018) ScanLen=9 NumDevices=2 aId[0]=0x3BA00477 aIrRead[0]=0 aScanLen[0]=0
 aScanRead[0]=0 (0031ms, 0081ms total)
T116C 000:085 JLINK_JTAG_GetDeviceID(DeviceIndex = 0)  returns 0x3BA00477 (0000ms, 0081ms total)
T116C 000:085 JLINK_JTAG_GetDeviceInfo(DeviceIndex = 0)  returns 0x00 (0000ms, 0081ms total)
T116C 000:085 JLINK_JTAG_GetDeviceID(DeviceIndex = 1)  returns 0x6420041 (0000ms, 0081ms total)
T116C 000:085 JLINK_JTAG_GetDeviceInfo(DeviceIndex = 1)  returns 0x00 (0000ms, 0081ms total)
T116C 000:085 JLINK_GetDeviceFamily()  returns 3 (0000ms, 0081ms total)
T116C 000:085 JLINK_ReadMem (0xE00FFFF0, 0x0010 Bytes, ...) -- CPU is running -- CPU_ReadMem(16 bytes @ 0xE00FFFF0) -- Data:  0D 00 00 00 10 00 00 00 05 00 00 00 B1 00 00 00  returns 0x00 (0001ms, 0082ms total)
T116C 000:086 JLINK_ReadMem (0xE00FFFD0, 0x0020 Bytes, ...) -- CPU is running -- CPU_ReadMem(32 bytes @ 0xE00FFFD0) -- Data:  00 00 00 00 00 00 00 00 00 00 00 00 00 00 00 00 ...  returns 0x00 (0001ms, 0083ms total)
T116C 000:087 JLINK_ReadMem (0xE00FF000, 0x0018 Bytes, ...) -- CPU is running -- CPU_ReadMem(24 bytes @ 0xE00FF000) -- Data:  03 F0 F0 FF 03 20 F0 FF 03 30 F0 FF 03 10 F0 FF ...  returns 0x00 (0001ms, 0084ms total)
T116C 000:088 JLINK_ReadMemU32(0xE000ED00, 0x0001 Items, ...) -- CPU is running -- CPU_ReadMem(4 bytes @ 0xE000ED00) -- Data:  31 C2 1F 41  returns 0x01 (0001ms, 0085ms total)
T116C 000:089 JLINK_SetResetType(JLINKARM_RESET_TYPE_NORMAL)  returns JLINKARM_RESET_TYPE_NORMAL (0000ms, 0085ms total)
T116C 000:089 JLINK_Reset() >0x80 JTAG> >0x40 JTAG> >0x30 JTAG> >0x40 JTAG> >0x40 JTAG> >0x30 JTAG> >0x40 JTAG> >0x50 JTAG>Found Cortex-M3 r1p1, Little endian. -- CPU is running -- CPU_WriteMem(4 bytes @ 0xE000EDF0) -- CPU is running -- CPU_WriteMem(4 bytes @ 0xE000EDFC) -- CPU is running -- CPU_WriteMem(4 bytes @ 0xE000ED0C) -- CPU is running -- CPU_ReadMem(4 bytes @ 0xE000EDF0) -- CPU is running -- CPU_ReadMem(4 bytes @ 0xE000EDF0) -- CPU is running -- CPU_WriteMem(4 bytes @ 0xE000EDF0)
 -- CPU is running -- CPU_WriteMem(4 bytes @ 0xE000EDFC) -- CPU is running -- CPU_ReadMem(4 bytes @ 0xE000EDF0) >0x80 JTAG> >0x40 JTAG> >0x30 JTAG> >0x40 JTAG> >0x50 JTAG> >0x40 JTAG> -- CPU_WriteMem(4 bytes @ 0xE000EDFC) -- CPU_WriteMem(4 bytes @ 0xE0001028) -- CPU_WriteMem(4 bytes @ 0xE0001038) -- CPU_WriteMem(4 bytes @ 0xE0001048) -- CPU_WriteMem(4 bytes @ 0xE0001058) -- CPU_WriteMem(4 bytes @ 0xE0002000) (0035ms, 0120ms total)
T116C 000:124 JLINK_ReadReg(R15 (PC))  returns 0x08000134 (0000ms, 0120ms total)
T116C 000:124 JLINK_ReadReg(XPSR)  returns 0x01000000 (0000ms, 0120ms total)
T116C 000:124 JLINK_Halt()  returns 0x00 (0000ms, 0120ms total)
T116C 000:124 JLINK_IsHalted()  returns TRUE (0000ms, 0120ms total)
T116C 000:124 JLINK_ReadMemU32(0xE000EDF0, 0x0001 Items, ...) -- CPU_ReadMem(4 bytes @ 0xE000EDF0) -- Data:  03 00 03 00  returns 0x01 (0001ms, 0121ms total)
T116C 000:125 JLINK_WriteU32(0xE000EDF0, 0xA05F0003) -- CPU_WriteMem(4 bytes @ 0xE000EDF0)  returns 0x00 (0000ms, 0121ms total)
T116C 000:125 JLINK_WriteU32(0xE000EDFC, 0x01000000) -- CPU_WriteMem(4 bytes @ 0xE000EDFC)  returns 0x00 (0001ms, 0122ms total)
T116C 000:127 JLINK_GetHWStatus(...)  returns 0x00 (0000ms, 0122ms total)
T116C 000:127 JLINK_GetNumBPUnits(Type = 0xFFFFFF00)  returns 0x00 (0000ms, 0122ms total)
T116C 000:127 JLINK_GetNumBPUnits(Type = 0xF0)  returns 0x2000 (0000ms, 0122ms total)
T116C 000:127 JLINK_GetNumWPUnits()  returns 0x00 (0000ms, 0122ms total)
T116C 000:128 JLINK_GetSpeed()  returns 0x7D0 (0000ms, 0122ms total)
T116C 000:128 JLINK_ReadMemU32(0xE000E004, 0x0001 Items, ...) -- CPU_ReadMem(4 bytes @ 0xE000E004) -- Data:  01 00 00 00  returns 0x01 (0001ms, 0123ms total)
T116C 000:129 JLINK_ReadMemU32(0xE000E004, 0x0001 Items, ...) -- CPU_ReadMem(4 bytes @ 0xE000E004) -- Data:  01 00 00 00  returns 0x01 (0000ms, 0123ms total)
T116C 000:129 JLINK_WriteMem(0xE0001000, 0x001C Bytes, ...) -- Data:  01 00 00 00 00 00 00 00 00 00 00 00 00 00 00 00 ... -- CPU_WriteMem(28 bytes @ 0xE0001000)  returns 0x1C (0001ms, 0124ms total)
T116C 000:130 JLINK_ReadMem (0xE0001000, 0x001C Bytes, ...) -- CPU_ReadMem(28 bytes @ 0xE0001000) -- Data:  01 00 00 40 00 00 00 00 00 00 00 00 00 00 00 00 ...  returns 0x00 (0002ms, 0126ms total)
T116C 000:132 JLINK_ReadReg(R15 (PC))  returns 0x08000134 (0000ms, 0126ms total)
T116C 000:132 JLINK_ReadReg(XPSR)  returns 0x01000000 (0000ms, 0126ms total)
T116C 000:290 JLINK_SetResetType(JLINKARM_RESET_TYPE_NORMAL)  returns JLINKARM_RESET_TYPE_NORMAL (0000ms, 0126ms total)
T116C 000:290 JLINK_Reset() >0x80 JTAG> >0x40 JTAG> >0x30 JTAG> >0x40 JTAG> >0x40 JTAG> >0x30 JTAG> >0x40 JTAG> >0x50 JTAG>Found Cortex-M3 r1p1, Little endian. -- CPU_WriteMem(4 bytes @ 0xE000EDF0) -- CPU_WriteMem(4 bytes @ 0xE000EDFC) -- CPU_WriteMem(4 bytes @ 0xE000ED0C) -- CPU_ReadMem(4 bytes @ 0xE000EDF0) -- CPU_ReadMem(4 bytes @ 0xE000EDF0) -- CPU_WriteMem(4 bytes @ 0xE000EDF0) -- CPU_WriteMem(4 bytes @ 0xE000EDFC) -- CPU is running -- CPU_ReadMem(4 bytes @ 0xE000EDF0) >0x80 JTAG> >0x40 JTAG>
 >0x30 JTAG> >0x40 JTAG> >0x50 JTAG> >0x40 JTAG> -- CPU_WriteMem(4 bytes @ 0xE000EDFC) -- CPU_WriteMem(4 bytes @ 0xE0001028) -- CPU_WriteMem(4 bytes @ 0xE0001038) -- CPU_WriteMem(4 bytes @ 0xE0001048) -- CPU_WriteMem(4 bytes @ 0xE0001058) -- CPU_WriteMem(4 bytes @ 0xE0002000) (0039ms, 0165ms total)
T116C 000:329 JLINK_ReadReg(R15 (PC))  returns 0x08000134 (0000ms, 0165ms total)
T116C 000:329 JLINK_ReadReg(XPSR)  returns 0x01000000 (0000ms, 0165ms total)
T116C 000:330 JLINK_ReadMem (0x08000120, 0x003C Bytes, ...) -- CPU_ReadMem(128 bytes @ 0x08000100) -- Updating C cache (128 bytes @ 0x08000100) -- Read from C cache (60 bytes @ 0x08000120) -- Data:  DF F8 0C D0 00 F0 3C F8 00 48 00 47 29 21 00 08 ...  returns 0x00 (0002ms, 0167ms total)
T116C 000:396 JLINK_ReadMem (0x40021000, 0x0024 Bytes, ...) -- CPU_ReadMem(36 bytes @ 0x40021000) -- Data:  83 37 00 00 00 00 00 00 00 00 00 00 00 00 00 00 ...  returns 0x00 (0002ms, 0169ms total)
T116C 000:398 JLINK_ReadMem (0x40021024, 0x0004 Bytes, ...) -- CPU_ReadMem(4 bytes @ 0x40021024) -- Data:  00 00 00 1C  returns 0x00 (0001ms, 0170ms total)
T116C 000:399 JLINK_ReadMem (0x4002102C, 0x0004 Bytes, ...) -- CPU_ReadMem(4 bytes @ 0x4002102C) -- Data:  00 00 00 00  returns 0x00 (0001ms, 0171ms total)
T116C 000:400 JLINK_ReadMem (0x40021000, 0x0004 Bytes, ...) -- CPU_ReadMem(4 bytes @ 0x40021000) -- Data:  83 37 00 00  returns 0x00 (0001ms, 0172ms total)
T116C 000:401 JLINK_ReadMem (0x40021000, 0x0004 Bytes, ...) -- CPU_ReadMem(4 bytes @ 0x40021000) -- Data:  83 37 00 00  returns 0x00 (0001ms, 0173ms total)
T116C 000:402 JLINK_ReadMem (0x40021000, 0x0004 Bytes, ...) -- CPU_ReadMem(4 bytes @ 0x40021000) -- Data:  83 37 00 00  returns 0x00 (0000ms, 0173ms total)
T116C 000:403 JLINK_ReadMem (0x40021000, 0x0004 Bytes, ...) -- CPU_ReadMem(4 bytes @ 0x40021000) -- Data:  83 37 00 00  returns 0x00 (0001ms, 0174ms total)
T116C 000:404 JLINK_ReadMem (0x40021000, 0x0004 Bytes, ...) -- CPU_ReadMem(4 bytes @ 0x40021000) -- Data:  83 37 00 00  returns 0x00 (0001ms, 0175ms total)
T116C 000:405 JLINK_ReadMem (0x40021000, 0x0004 Bytes, ...) -- CPU_ReadMem(4 bytes @ 0x40021000) -- Data:  83 37 00 00  returns 0x00 (0001ms, 0176ms total)
T116C 000:406 JLINK_ReadMem (0x40021000, 0x0004 Bytes, ...) -- CPU_ReadMem(4 bytes @ 0x40021000) -- Data:  83 37 00 00  returns 0x00 (0001ms, 0177ms total)
T116C 000:407 JLINK_ReadMem (0x40021000, 0x0004 Bytes, ...) -- CPU_ReadMem(4 bytes @ 0x40021000) -- Data:  83 37 00 00  returns 0x00 (0001ms, 0178ms total)
T116C 000:408 JLINK_ReadMem (0x40021000, 0x0004 Bytes, ...) -- CPU_ReadMem(4 bytes @ 0x40021000) -- Data:  83 37 00 00  returns 0x00 (0001ms, 0179ms total)
T116C 000:409 JLINK_ReadMem (0x40021000, 0x0004 Bytes, ...) -- CPU_ReadMem(4 bytes @ 0x40021000) -- Data:  83 37 00 00  returns 0x00 (0001ms, 0180ms total)
T116C 000:410 JLINK_ReadMem (0x40021000, 0x0004 Bytes, ...) -- CPU_ReadMem(4 bytes @ 0x40021000) -- Data:  83 37 00 00  returns 0x00 (0000ms, 0180ms total)
T116C 000:411 JLINK_ReadMem (0x40021014, 0x0004 Bytes, ...) -- CPU_ReadMem(4 bytes @ 0x40021014) -- Data:  14 00 00 00  returns 0x00 (0001ms, 0181ms total)
T116C 000:412 JLINK_ReadMem (0x40021014, 0x0004 Bytes, ...) -- CPU_ReadMem(4 bytes @ 0x40021014) -- Data:  14 00 00 00  returns 0x00 (0001ms, 0182ms total)
T116C 000:413 JLINK_ReadMem (0x40021014, 0x0004 Bytes, ...) -- CPU_ReadMem(4 bytes @ 0x40021014) -- Data:  14 00 00 00  returns 0x00 (0001ms, 0183ms total)
T116C 000:414 JLINK_ReadMem (0x40021014, 0x0004 Bytes, ...) -- CPU_ReadMem(4 bytes @ 0x40021014) -- Data:  14 00 00 00  returns 0x00 (0001ms, 0184ms total)
T116C 000:415 JLINK_ReadMem (0x40021014, 0x0004 Bytes, ...) -- CPU_ReadMem(4 bytes @ 0x40021014) -- Data:  14 00 00 00  returns 0x00 (0000ms, 0184ms total)
T116C 000:416 JLINK_ReadMem (0x40021014, 0x0004 Bytes, ...) -- CPU_ReadMem(4 bytes @ 0x40021014) -- Data:  14 00 00 00  returns 0x00 (0000ms, 0184ms total)
T116C 000:416 JLINK_ReadMem (0x40021014, 0x0004 Bytes, ...) -- CPU_ReadMem(4 bytes @ 0x40021014) -- Data:  14 00 00 00  returns 0x00 (0001ms, 0185ms total)
T116C 000:417 JLINK_ReadMem (0x40021020, 0x0004 Bytes, ...) -- CPU_ReadMem(4 bytes @ 0x40021020) -- Data:  03 81 00 00  returns 0x00 (0001ms, 0186ms total)
T116C 000:418 JLINK_ReadMem (0x40021020, 0x0004 Bytes, ...) -- CPU_ReadMem(4 bytes @ 0x40021020) -- Data:  03 81 00 00  returns 0x00 (0001ms, 0187ms total)
T116C 000:419 JLINK_ReadMem (0x40021020, 0x0004 Bytes, ...) -- CPU_ReadMem(4 bytes @ 0x40021020) -- Data:  03 81 00 00  returns 0x00 (0001ms, 0188ms total)
T116C 000:420 JLINK_ReadMem (0x40021020, 0x0004 Bytes, ...) -- CPU_ReadMem(4 bytes @ 0x40021020) -- Data:  03 81 00 00  returns 0x00 (0001ms, 0189ms total)
T116C 000:422 JLINK_ReadMem (0x40021020, 0x0004 Bytes, ...) -- CPU_ReadMem(4 bytes @ 0x40021020) -- Data:  03 81 00 00  returns 0x00 (0001ms, 0190ms total)
T116C 000:423 JLINK_ReadMem (0x40021020, 0x0004 Bytes, ...) -- CPU_ReadMem(4 bytes @ 0x40021020) -- Data:  03 81 00 00  returns 0x00 (0000ms, 0190ms total)
T116C 000:424 JLINK_ReadMem (0x40021020, 0x0004 Bytes, ...) -- CPU_ReadMem(4 bytes @ 0x40021020) -- Data:  03 81 00 00  returns 0x00 (0000ms, 0190ms total)
T116C 000:424 JLINK_ReadMem (0x40021024, 0x0004 Bytes, ...) -- CPU_ReadMem(4 bytes @ 0x40021024) -- Data:  00 00 00 1C  returns 0x00 (0001ms, 0191ms total)
T116C 000:425 JLINK_ReadMem (0x40021024, 0x0004 Bytes, ...) -- CPU_ReadMem(4 bytes @ 0x40021024) -- Data:  00 00 00 1C  returns 0x00 (0001ms, 0192ms total)
T116C 000:426 JLINK_ReadMem (0x40021024, 0x0004 Bytes, ...) -- CPU_ReadMem(4 bytes @ 0x40021024) -- Data:  00 00 00 1C  returns 0x00 (0001ms, 0193ms total)
T116C 000:427 JLINK_ReadMem (0x40021024, 0x0004 Bytes, ...) -- CPU_ReadMem(4 bytes @ 0x40021024) -- Data:  00 00 00 1C  returns 0x00 (0001ms, 0194ms total)
T116C 000:428 JLINK_ReadMem (0x40021024, 0x0004 Bytes, ...) -- CPU_ReadMem(4 bytes @ 0x40021024) -- Data:  00 00 00 1C  returns 0x00 (0001ms, 0195ms total)
T116C 000:429 JLINK_ReadMem (0x40021024, 0x0004 Bytes, ...) -- CPU_ReadMem(4 bytes @ 0x40021024) -- Data:  00 00 00 1C  returns 0x00 (0001ms, 0196ms total)
T116C 000:430 JLINK_ReadMem (0x40021024, 0x0004 Bytes, ...) -- CPU_ReadMem(4 bytes @ 0x40021024) -- Data:  00 00 00 1C  returns 0x00 (0001ms, 0197ms total)
T116C 000:431 JLINK_ReadMem (0x40021024, 0x0004 Bytes, ...) -- CPU_ReadMem(4 bytes @ 0x40021024) -- Data:  00 00 00 1C  returns 0x00 (0000ms, 0197ms total)
T116C 000:432 JLINK_ReadMem (0x40021024, 0x0004 Bytes, ...) -- CPU_ReadMem(4 bytes @ 0x40021024) -- Data:  00 00 00 1C  returns 0x00 (0000ms, 0197ms total)
T116C 000:432 JLINK_ReadMem (0x40021024, 0x0004 Bytes, ...) -- CPU_ReadMem(4 bytes @ 0x40021024) -- Data:  00 00 00 1C  returns 0x00 (0001ms, 0198ms total)
T116C 001:060 JLINK_ReadMem (0x40021000, 0x0024 Bytes, ...) -- CPU_ReadMem(36 bytes @ 0x40021000) -- Data:  83 37 00 00 00 00 00 00 00 00 00 00 00 00 00 00 ...  returns 0x00 (0002ms, 0200ms total)
T116C 001:062 JLINK_ReadMem (0x40021024, 0x0004 Bytes, ...) -- CPU_ReadMem(4 bytes @ 0x40021024) -- Data:  00 00 00 1C  returns 0x00 (0001ms, 0201ms total)
T116C 001:063 JLINK_ReadMem (0x4002102C, 0x0004 Bytes, ...) -- CPU_ReadMem(4 bytes @ 0x4002102C) -- Data:  00 00 00 00  returns 0x00 (0001ms, 0202ms total)
T116C 001:064 JLINK_ReadMem (0x40021000, 0x0024 Bytes, ...) -- CPU_ReadMem(36 bytes @ 0x40021000) -- Data:  83 37 00 00 00 00 00 00 00 00 00 00 00 00 00 00 ...  returns 0x00 (0001ms, 0203ms total)
T116C 001:065 JLINK_ReadMem (0x40021024, 0x0004 Bytes, ...) -- CPU_ReadMem(4 bytes @ 0x40021024) -- Data:  00 00 00 1C  returns 0x00 (0001ms, 0204ms total)
T116C 001:066 JLINK_ReadMem (0x4002102C, 0x0004 Bytes, ...) -- CPU_ReadMem(4 bytes @ 0x4002102C) -- Data:  00 00 00 00  returns 0x00 (0001ms, 0205ms total)
T0574 001:080 JLINK_SetBPEx(Addr = 0x08002128, Type = 0xFFFFFFF2)  returns 0x00000001 (0000ms, 0205ms total)
T0574 001:080 JLINK_SetBPEx(Addr = 0x08002028, Type = 0xFFFFFFF2)  returns 0x00000002 (0000ms, 0205ms total)
T0574 001:080 JLINK_Go() -- Read from C cache (2 bytes @ 0x08000134) -- Read from C cache (4 bytes @ 0x08000150) -- Simulated -- Read from C cache (2 bytes @ 0x08000136) -- Simulated -- CPU_ReadMem(64 bytes @ 0x08001440) -- Updating C cache (64 bytes @ 0x08001440) -- Read from C cache (2 bytes @ 0x08001448) -- CPU_WriteMem(8 bytes @ 0x20000700) -- Simulated -- Read from C cache (2 bytes @ 0x0800144A) -- CPU_ReadMem(64 bytes @ 0x08001480) -- Updating C cache (64 bytes @ 0x08001480)
 -- Read from C cache (4 bytes @ 0x08001484) -- Simulated -- Read from C cache (2 bytes @ 0x0800144C) -- CPU_ReadMem(4 bytes @ 0x40021000) -- Simulated -- Read from C cache (2 bytes @ 0x0800144E) -- Simulated -- Read from C cache (2 bytes @ 0x08001450) -- Read from C cache (4 bytes @ 0x08001484) -- Simulated -- Read from C cache (2 bytes @ 0x08001452) -- CPU_WriteMem(4 bytes @ 0x40021000) -- Simulated -- Read from C cache (2 bytes @ 0x08001454) -- Simulated -- Read from C cache (2 bytes @ 0x08001456)
 -- CPU_ReadMem(4 bytes @ 0x40021000) -- Simulated -- CPU_ReadMem(1024 bytes @ 0x08002000) -- Updating C cache (1024 bytes @ 0x08002000) -- Read from C cache (1024 bytes @ 0x08002000) -- Updating flash cache (1024 bytes @ 0x08002000) -- Programming range 0x08002000 - 0x080023FF (  1 Sector, 1024 Bytes) -- CPU clock frequency: 7497 kHz (0215ms, 0420ms total)
T0574 001:395 JLINK_IsHalted()  returns TRUE (0005ms, 0425ms total)
T0574 001:400 JLINK_Halt()  returns 0x00 (0000ms, 0420ms total)
T0574 001:400 JLINK_IsHalted()  returns TRUE (0000ms, 0420ms total)
T0574 001:400 JLINK_IsHalted()  returns TRUE (0000ms, 0420ms total)
T0574 001:400 JLINK_IsHalted()  returns TRUE (0000ms, 0420ms total)
T0574 001:400 JLINK_ReadReg(R15 (PC))  returns 0x08002128 (0000ms, 0420ms total)
T0574 001:400 JLINK_ReadReg(XPSR)  returns 0x61000000 (0000ms, 0420ms total)
T0574 001:400 JLINK_ClrBPEx(BPHandle = 0x00000001)  returns 0x00 (0000ms, 0420ms total)
T0574 001:400 JLINK_ClrBPEx(BPHandle = 0x00000002)  returns 0x00 (0000ms, 0420ms total)
T0574 001:400 JLINK_ReadMemU32(0xE000ED30, 0x0001 Items, ...) -- CPU_ReadMem(4 bytes @ 0xE000ED30) -- Data:  03 00 00 00  returns 0x01 (0001ms, 0421ms total)
T0574 001:401 JLINK_ReadReg(R0)  returns 0x08002129 (0000ms, 0421ms total)
T0574 001:401 JLINK_ReadReg(R1)  returns 0x20000708 (0000ms, 0421ms total)
T0574 001:401 JLINK_ReadReg(R2)  returns 0x00000000 (0000ms, 0421ms total)
T0574 001:401 JLINK_ReadReg(R3)  returns 0x08001B3B (0000ms, 0421ms total)
T0574 001:401 JLINK_ReadReg(R4)  returns 0x080028CC (0000ms, 0421ms total)
T0574 001:401 JLINK_ReadReg(R5)  returns 0x080028CC (0000ms, 0421ms total)
T0574 001:401 JLINK_ReadReg(R6)  returns 0x00000000 (0000ms, 0421ms total)
T0574 001:401 JLINK_ReadReg(R7)  returns 0x00000000 (0000ms, 0421ms total)
T0574 001:401 JLINK_ReadReg(R8)  returns 0x00000000 (0000ms, 0421ms total)
T0574 001:401 JLINK_ReadReg(R9)  returns 0x20000160 (0000ms, 0421ms total)
T0574 001:401 JLINK_ReadReg(R10)  returns 0x00000000 (0000ms, 0421ms total)
T0574 001:401 JLINK_ReadReg(R11)  returns 0x00000000 (0000ms, 0421ms total)
T0574 001:401 JLINK_ReadReg(R12)  returns 0x00000000 (0000ms, 0421ms total)
T0574 001:401 JLINK_ReadReg(R13 (SP))  returns 0x20000708 (0000ms, 0421ms total)
T0574 001:401 JLINK_ReadReg(R14)  returns 0x080001BD (0000ms, 0421ms total)
T0574 001:401 JLINK_ReadReg(R15 (PC))  returns 0x08002128 (0000ms, 0421ms total)
T0574 001:401 JLINK_ReadReg(XPSR)  returns 0x61000000 (0000ms, 0421ms total)
T0574 001:401 JLINK_ReadReg(MSP)  returns 0x20000708 (0000ms, 0421ms total)
T0574 001:401 JLINK_ReadReg(PSP)  returns 0x20000800 (0000ms, 0421ms total)
T0574 001:401 JLINK_ReadReg(CFBP)  returns 0x00000000 (0000ms, 0421ms total)
T116C 001:404 JLINK_ReadMemU32(0xE0001004, 0x0001 Items, ...) -- CPU_ReadMem(4 bytes @ 0xE0001004) -- Data:  4A 44 0A 00  returns 0x01 (0001ms, 0422ms total)
T116C 001:405 JLINK_ReadMem (0x40021000, 0x0024 Bytes, ...) -- CPU_ReadMem(36 bytes @ 0x40021000) -- Data:  03 27 00 03 0A 00 10 05 00 00 00 00 00 00 00 00 ...  returns 0x00 (0001ms, 0423ms total)
T116C 001:406 JLINK_ReadMem (0x40021024, 0x0004 Bytes, ...) -- CPU_ReadMem(4 bytes @ 0x40021024) -- Data:  00 00 00 1C  returns 0x00 (0001ms, 0424ms total)
T116C 001:407 JLINK_ReadMem (0x4002102C, 0x0004 Bytes, ...) -- CPU_ReadMem(4 bytes @ 0x4002102C) -- Data:  00 00 00 00  returns 0x00 (0001ms, 0425ms total)
T116C 001:408 JLINK_ReadMem (0x40021000, 0x0004 Bytes, ...) -- CPU_ReadMem(4 bytes @ 0x40021000) -- Data:  03 27 00 03  returns 0x00 (0001ms, 0426ms total)
T116C 001:409 JLINK_ReadMem (0x40021000, 0x0004 Bytes, ...) -- CPU_ReadMem(4 bytes @ 0x40021000) -- Data:  03 27 00 03  returns 0x00 (0001ms, 0427ms total)
T116C 001:410 JLINK_ReadMem (0x40021000, 0x0004 Bytes, ...) -- CPU_ReadMem(4 bytes @ 0x40021000) -- Data:  03 27 00 03  returns 0x00 (0001ms, 0428ms total)
T116C 001:411 JLINK_ReadMem (0x40021000, 0x0004 Bytes, ...) -- CPU_ReadMem(4 bytes @ 0x40021000) -- Data:  03 27 00 03  returns 0x00 (0001ms, 0429ms total)
T116C 001:412 JLINK_ReadMem (0x40021000, 0x0004 Bytes, ...) -- CPU_ReadMem(4 bytes @ 0x40021000) -- Data:  03 27 00 03  returns 0x00 (0001ms, 0430ms total)
T116C 001:413 JLINK_ReadMem (0x40021000, 0x0004 Bytes, ...) -- CPU_ReadMem(4 bytes @ 0x40021000) -- Data:  03 27 00 03  returns 0x00 (0000ms, 0430ms total)
T116C 001:413 JLINK_ReadMem (0x40021000, 0x0004 Bytes, ...) -- CPU_ReadMem(4 bytes @ 0x40021000) -- Data:  03 27 00 03  returns 0x00 (0001ms, 0431ms total)
T116C 001:414 JLINK_ReadMem (0x40021000, 0x0004 Bytes, ...) -- CPU_ReadMem(4 bytes @ 0x40021000) -- Data:  03 27 00 03  returns 0x00 (0001ms, 0432ms total)
T116C 001:415 JLINK_ReadMem (0x40021000, 0x0004 Bytes, ...) -- CPU_ReadMem(4 bytes @ 0x40021000) -- Data:  03 27 00 03  returns 0x00 (0001ms, 0433ms total)
T116C 001:416 JLINK_ReadMem (0x40021000, 0x0004 Bytes, ...) -- CPU_ReadMem(4 bytes @ 0x40021000) -- Data:  03 27 00 03  returns 0x00 (0001ms, 0434ms total)
T116C 001:417 JLINK_ReadMem (0x40021000, 0x0004 Bytes, ...) -- CPU_ReadMem(4 bytes @ 0x40021000) -- Data:  03 27 00 03  returns 0x00 (0002ms, 0436ms total)
T116C 001:419 JLINK_ReadMem (0x40021004, 0x0004 Bytes, ...) -- CPU_ReadMem(4 bytes @ 0x40021004) -- Data:  0A 00 10 05  returns 0x00 (0001ms, 0437ms total)
T116C 001:420 JLINK_ReadMem (0x40021004, 0x0004 Bytes, ...) -- CPU_ReadMem(4 bytes @ 0x40021004) -- Data:  0A 00 10 05  returns 0x00 (0001ms, 0438ms total)
T116C 001:421 JLINK_ReadMem (0x40021004, 0x0004 Bytes, ...) -- CPU_ReadMem(4 bytes @ 0x40021004) -- Data:  0A 00 10 05  returns 0x00 (0001ms, 0439ms total)
T116C 001:422 JLINK_ReadMem (0x40021004, 0x0004 Bytes, ...) -- CPU_ReadMem(4 bytes @ 0x40021004) -- Data:  0A 00 10 05  returns 0x00 (0001ms, 0440ms total)
T116C 001:423 JLINK_ReadMem (0x40021004, 0x0004 Bytes, ...) -- CPU_ReadMem(4 bytes @ 0x40021004) -- Data:  0A 00 10 05  returns 0x00 (0001ms, 0441ms total)
T116C 001:424 JLINK_ReadMem (0x40021004, 0x0004 Bytes, ...) -- CPU_ReadMem(4 bytes @ 0x40021004) -- Data:  0A 00 10 05  returns 0x00 (0001ms, 0442ms total)
T116C 001:425 JLINK_ReadMem (0x40021004, 0x0004 Bytes, ...) -- CPU_ReadMem(4 bytes @ 0x40021004) -- Data:  0A 00 10 05  returns 0x00 (0000ms, 0442ms total)
T116C 001:425 JLINK_ReadMem (0x40021004, 0x0004 Bytes, ...) -- CPU_ReadMem(4 bytes @ 0x40021004) -- Data:  0A 00 10 05  returns 0x00 (0001ms, 0443ms total)
T116C 001:426 JLINK_ReadMem (0x40021004, 0x0004 Bytes, ...) -- CPU_ReadMem(4 bytes @ 0x40021004) -- Data:  0A 00 10 05  returns 0x00 (0001ms, 0444ms total)
T116C 001:427 JLINK_ReadMem (0x40021004, 0x0004 Bytes, ...) -- CPU_ReadMem(4 bytes @ 0x40021004) -- Data:  0A 00 10 05  returns 0x00 (0001ms, 0445ms total)
T116C 001:428 JLINK_ReadMem (0x40021004, 0x0004 Bytes, ...) -- CPU_ReadMem(4 bytes @ 0x40021004) -- Data:  0A 00 10 05  returns 0x00 (0001ms, 0446ms total)
T116C 001:429 JLINK_ReadMem (0x08002128, 0x003C Bytes, ...) -- Read from flash cache (60 bytes @ 0x08002128) -- Merging zombie BP[0]: 0xF7FF @ 0x08002128 -- Data:  FF F7 0C FF 01 E0 FF F7 BF FD FC E7 F0 B5 0B 30 ...  returns 0x00 (0000ms, 0446ms total)
T0574 013:070 JLINK_SetBPEx(Addr = 0x0800212C, Type = 0xFFFFFFF2)  returns 0x00000003 (0000ms, 0446ms total)
T0574 013:070 JLINK_SetBPEx(Addr = 0x08002028, Type = 0xFFFFFFF2)  returns 0x00000004 (0000ms, 0446ms total)
T0574 013:070 JLINK_Go() -- Merging zombie BP[0]: 0xF7FF @ 0x08002128 -- Merging zombie BP[0]: 0xF7FF @ 0x08002128 -- Read from flash cache (2 bytes @ 0x0800212A) -- Simulated -- CPU_ReadMem(64 bytes @ 0x08001F40) -- Updating C cache (64 bytes @ 0x08001F40) -- Read from C cache (2 bytes @ 0x08001F44) -- CPU_WriteMem(16 bytes @ 0x200006F8) -- Simulated -- Read from C cache (2 bytes @ 0x08001F46) -- Simulated -- Read from C cache (2 bytes @ 0x08001F48) -- Read from C cache (2 bytes @ 0x08001F4A)
 -- Simulated -- CPU_ReadMem(64 bytes @ 0x08001200) -- Updating C cache (64 bytes @ 0x08001200) -- Read from C cache (2 bytes @ 0x0800121C) -- CPU_WriteMem(16 bytes @ 0x200006E8) -- Simulated -- Read from C cache (2 bytes @ 0x0800121E) -- Simulated -- Read from C cache (2 bytes @ 0x08001220) -- CPU_ReadMem(64 bytes @ 0x08001240) -- Updating C cache (64 bytes @ 0x08001240) -- Read from C cache (4 bytes @ 0x08001250) -- Simulated -- Read from C cache (2 bytes @ 0x08001222)
 -- Read from C cache (2 bytes @ 0x08001224) -- Not simulated -- Read from flash cache (1024 bytes @ 0x08002000) -- Programming range 0x08002000 - 0x080023FF (  1 Sector, 1024 Bytes) -- CPU clock frequency: 22491 kHz (0211ms, 0657ms total)
T0574 013:381 JLINK_IsHalted()  returns FALSE (0000ms, 0657ms total)
T0574 013:481 JLINK_IsHalted()  returns FALSE (0000ms, 0657ms total)
T0574 013:581 JLINK_IsHalted()  returns FALSE (0000ms, 0657ms total)
T0574 013:681 JLINK_IsHalted()  returns FALSE (0001ms, 0658ms total)
T0574 013:782 JLINK_IsHalted()  returns FALSE (0000ms, 0657ms total)
T0574 013:882 JLINK_IsHalted()  returns FALSE (0001ms, 0658ms total)
T0574 013:983 JLINK_IsHalted()  returns FALSE (0001ms, 0658ms total)
T0574 014:084 JLINK_IsHalted()  returns FALSE (0003ms, 0660ms total)
T0574 014:187 JLINK_IsHalted()  returns FALSE (0000ms, 0657ms total)
T0574 014:287 JLINK_IsHalted()  returns FALSE (0001ms, 0658ms total)
T0574 014:388 JLINK_IsHalted()  returns FALSE (0000ms, 0657ms total)
T0574 014:488 JLINK_IsHalted()  returns FALSE (0000ms, 0657ms total)
T0574 014:588 JLINK_IsHalted()  returns FALSE (0000ms, 0657ms total)
T0574 014:688 JLINK_IsHalted()  returns FALSE (0000ms, 0657ms total)
T0574 014:788 JLINK_IsHalted()  returns FALSE (0000ms, 0657ms total)
T0574 014:888 JLINK_IsHalted()  returns FALSE (0001ms, 0658ms total)
T0574 014:989 JLINK_IsHalted()  returns FALSE (0000ms, 0657ms total)
T0574 015:089 JLINK_IsHalted()  returns FALSE (0001ms, 0658ms total)
T0574 015:190 JLINK_IsHalted()  returns FALSE (0001ms, 0658ms total)
T0574 015:291 JLINK_IsHalted()  returns FALSE (0001ms, 0658ms total)
T0574 015:392 JLINK_IsHalted()  returns FALSE (0001ms, 0658ms total)
T0574 015:494 JLINK_IsHalted()  returns FALSE (0001ms, 0658ms total)
T0574 015:595 JLINK_IsHalted()  returns FALSE (0001ms, 0658ms total)
T0574 015:696 JLINK_IsHalted()  returns FALSE (0001ms, 0658ms total)
T0574 015:797 JLINK_IsHalted()  returns FALSE (0001ms, 0658ms total)
T0574 015:898 JLINK_IsHalted()  returns FALSE (0000ms, 0657ms total)
T0574 015:998 JLINK_IsHalted()  returns FALSE (0000ms, 0657ms total)
T0574 016:098 JLINK_IsHalted()  returns FALSE (0001ms, 0658ms total)
T0574 016:199 JLINK_IsHalted()  returns FALSE (0001ms, 0658ms total)
T0574 016:300 JLINK_IsHalted()  returns FALSE (0000ms, 0657ms total)
T0574 016:401 JLINK_IsHalted()  returns FALSE (0001ms, 0658ms total)
T0574 016:502 JLINK_IsHalted()  returns FALSE (0000ms, 0657ms total)
T0574 016:603 JLINK_IsHalted()  returns FALSE (0001ms, 0658ms total)
T0574 016:704 JLINK_IsHalted()  returns FALSE (0000ms, 0657ms total)
T0574 016:805 JLINK_IsHalted()  returns FALSE (0000ms, 0657ms total)
T0574 016:906 JLINK_IsHalted()  returns FALSE (0000ms, 0657ms total)
T0574 017:006 JLINK_IsHalted()  returns FALSE (0000ms, 0657ms total)
T0574 017:106 JLINK_IsHalted()  returns FALSE (0001ms, 0658ms total)
T0574 017:207 JLINK_IsHalted()  returns FALSE (0001ms, 0658ms total)
T0574 017:308 JLINK_IsHalted()  returns TRUE (0005ms, 0662ms total)
T0574 017:313 JLINK_Halt()  returns 0x00 (0000ms, 0657ms total)
T0574 017:313 JLINK_IsHalted()  returns TRUE (0000ms, 0657ms total)
T0574 017:313 JLINK_IsHalted()  returns TRUE (0000ms, 0657ms total)
T0574 017:313 JLINK_IsHalted()  returns TRUE (0000ms, 0657ms total)
T0574 017:313 JLINK_ReadReg(R15 (PC))  returns 0x08002028 (0000ms, 0657ms total)
T0574 017:313 JLINK_ReadReg(XPSR)  returns 0x61000000 (0000ms, 0657ms total)
T0574 017:313 JLINK_ClrBPEx(BPHandle = 0x00000003)  returns 0x00 (0000ms, 0657ms total)
T0574 017:313 JLINK_ClrBPEx(BPHandle = 0x00000004)  returns 0x00 (0000ms, 0657ms total)
T0574 017:313 JLINK_ReadMemU32(0xE000ED30, 0x0001 Items, ...) -- CPU_ReadMem(4 bytes @ 0xE000ED30) -- Data:  03 00 00 00  returns 0x01 (0001ms, 0658ms total)
T0574 017:315 JLINK_ReadReg(R0)  returns 0x00000001 (0000ms, 0658ms total)
T0574 017:315 JLINK_ReadReg(R1)  returns 0x00000000 (0000ms, 0658ms total)
T0574 017:315 JLINK_ReadReg(R2)  returns 0x20000080 (0000ms, 0658ms total)
T0574 017:315 JLINK_ReadReg(R3)  returns 0x10031000 (0000ms, 0658ms total)
T0574 017:315 JLINK_ReadReg(R4)  returns 0x0000000B (0000ms, 0658ms total)
T0574 017:315 JLINK_ReadReg(R5)  returns 0x000000F0 (0000ms, 0658ms total)
T0574 017:315 JLINK_ReadReg(R6)  returns 0x00000000 (0000ms, 0658ms total)
T0574 017:315 JLINK_ReadReg(R7)  returns 0x00000000 (0000ms, 0658ms total)
T0574 017:315 JLINK_ReadReg(R8)  returns 0x00000000 (0000ms, 0658ms total)
T0574 017:315 JLINK_ReadReg(R9)  returns 0x20000160 (0000ms, 0658ms total)
T0574 017:315 JLINK_ReadReg(R10)  returns 0x00000000 (0000ms, 0658ms total)
T0574 017:315 JLINK_ReadReg(R11)  returns 0x00000000 (0000ms, 0658ms total)
T0574 017:315 JLINK_ReadReg(R12)  returns 0x00001000 (0000ms, 0658ms total)
T0574 017:315 JLINK_ReadReg(R13 (SP))  returns 0x200006F8 (0000ms, 0658ms total)
T0574 017:315 JLINK_ReadReg(R14)  returns 0x08001B29 (0000ms, 0658ms total)
T0574 017:315 JLINK_ReadReg(R15 (PC))  returns 0x08002028 (0000ms, 0658ms total)
T0574 017:315 JLINK_ReadReg(XPSR)  returns 0x61000000 (0000ms, 0658ms total)
T0574 017:315 JLINK_ReadReg(MSP)  returns 0x200006F8 (0000ms, 0658ms total)
T0574 017:315 JLINK_ReadReg(PSP)  returns 0x20000800 (0000ms, 0658ms total)
T0574 017:315 JLINK_ReadReg(CFBP)  returns 0x00000000 (0000ms, 0658ms total)
T116C 017:316 JLINK_ReadMem (0x20000704, 0x0004 Bytes, ...) -- CPU_ReadMem(64 bytes @ 0x20000700) -- Updating C cache (64 bytes @ 0x20000700) -- Read from C cache (4 bytes @ 0x20000704) -- Data:  2D 21 00 08  returns 0x00 (0001ms, 0659ms total)
T116C 017:317 JLINK_ReadMem (0x200006F8, 0x0004 Bytes, ...) -- CPU_ReadMem(64 bytes @ 0x200006C0) -- Updating C cache (64 bytes @ 0x200006C0) -- Read from C cache (4 bytes @ 0x200006F8) -- Data:  CC 28 00 08  returns 0x00 (0002ms, 0661ms total)
T116C 017:319 JLINK_ReadMem (0x200006FC, 0x0004 Bytes, ...) -- Read from C cache (4 bytes @ 0x200006FC) -- Data:  CC 28 00 08  returns 0x00 (0000ms, 0661ms total)
T116C 017:319 JLINK_ReadMem (0x20000700, 0x0004 Bytes, ...) -- Read from C cache (4 bytes @ 0x20000700) -- Data:  00 00 00 00  returns 0x00 (0000ms, 0661ms total)
T116C 017:325 JLINK_ReadMemU32(0xE0001004, 0x0001 Items, ...) -- CPU_ReadMem(4 bytes @ 0xE0001004) -- Data:  33 B9 1A 05  returns 0x01 (0002ms, 0663ms total)
T116C 017:327 JLINK_ReadMem (0x40021000, 0x0024 Bytes, ...) -- CPU_ReadMem(36 bytes @ 0x40021000) -- Data:  83 37 00 03 0A 00 10 04 00 00 00 00 00 00 00 00 ...  returns 0x00 (0001ms, 0664ms total)
T116C 017:328 JLINK_ReadMem (0x40021024, 0x0004 Bytes, ...) -- CPU_ReadMem(4 bytes @ 0x40021024) -- Data:  00 00 00 1C  returns 0x00 (0001ms, 0665ms total)
T116C 017:329 JLINK_ReadMem (0x4002102C, 0x0004 Bytes, ...) -- CPU_ReadMem(4 bytes @ 0x4002102C) -- Data:  00 00 00 00  returns 0x00 (0001ms, 0666ms total)
T116C 017:330 JLINK_ReadMem (0x40021000, 0x0004 Bytes, ...) -- CPU_ReadMem(4 bytes @ 0x40021000) -- Data:  83 37 00 03  returns 0x00 (0001ms, 0667ms total)
T116C 017:332 JLINK_ReadMem (0x40021000, 0x0004 Bytes, ...) -- CPU_ReadMem(4 bytes @ 0x40021000) -- Data:  83 37 00 03  returns 0x00 (0001ms, 0668ms total)
T116C 017:333 JLINK_ReadMem (0x40021000, 0x0004 Bytes, ...) -- CPU_ReadMem(4 bytes @ 0x40021000) -- Data:  83 37 00 03  returns 0x00 (0001ms, 0669ms total)
T116C 017:334 JLINK_ReadMem (0x40021000, 0x0004 Bytes, ...) -- CPU_ReadMem(4 bytes @ 0x40021000) -- Data:  83 37 00 03  returns 0x00 (0001ms, 0670ms total)
T116C 017:335 JLINK_ReadMem (0x40021000, 0x0004 Bytes, ...) -- CPU_ReadMem(4 bytes @ 0x40021000) -- Data:  83 37 00 03  returns 0x00 (0001ms, 0671ms total)
T116C 017:336 JLINK_ReadMem (0x40021000, 0x0004 Bytes, ...) -- CPU_ReadMem(4 bytes @ 0x40021000) -- Data:  83 37 00 03  returns 0x00 (0001ms, 0672ms total)
T116C 017:337 JLINK_ReadMem (0x40021000, 0x0004 Bytes, ...) -- CPU_ReadMem(4 bytes @ 0x40021000) -- Data:  83 37 00 03  returns 0x00 (0001ms, 0673ms total)
T116C 017:338 JLINK_ReadMem (0x40021000, 0x0004 Bytes, ...) -- CPU_ReadMem(4 bytes @ 0x40021000) -- Data:  83 37 00 03  returns 0x00 (0001ms, 0674ms total)
T116C 017:339 JLINK_ReadMem (0x40021000, 0x0004 Bytes, ...) -- CPU_ReadMem(4 bytes @ 0x40021000) -- Data:  83 37 00 03  returns 0x00 (0001ms, 0675ms total)
T116C 017:340 JLINK_ReadMem (0x40021000, 0x0004 Bytes, ...) -- CPU_ReadMem(4 bytes @ 0x40021000) -- Data:  83 37 00 03  returns 0x00 (0001ms, 0676ms total)
T116C 017:341 JLINK_ReadMem (0x40021000, 0x0004 Bytes, ...) -- CPU_ReadMem(4 bytes @ 0x40021000) -- Data:  83 37 00 03  returns 0x00 (0001ms, 0677ms total)
T116C 017:349 JLINK_ReadMem (0x40021004, 0x0004 Bytes, ...) -- CPU_ReadMem(4 bytes @ 0x40021004) -- Data:  0A 00 10 04  returns 0x00 (0001ms, 0678ms total)
T116C 017:350 JLINK_ReadMem (0x40021004, 0x0004 Bytes, ...) -- CPU_ReadMem(4 bytes @ 0x40021004) -- Data:  0A 00 10 04  returns 0x00 (0001ms, 0679ms total)
T116C 017:351 JLINK_ReadMem (0x40021004, 0x0004 Bytes, ...) -- CPU_ReadMem(4 bytes @ 0x40021004) -- Data:  0A 00 10 04  returns 0x00 (0001ms, 0680ms total)
T116C 017:352 JLINK_ReadMem (0x40021004, 0x0004 Bytes, ...) -- CPU_ReadMem(4 bytes @ 0x40021004) -- Data:  0A 00 10 04  returns 0x00 (0001ms, 0681ms total)
T116C 017:353 JLINK_ReadMem (0x40021004, 0x0004 Bytes, ...) -- CPU_ReadMem(4 bytes @ 0x40021004) -- Data:  0A 00 10 04  returns 0x00 (0001ms, 0682ms total)
T116C 017:354 JLINK_ReadMem (0x40021004, 0x0004 Bytes, ...) -- CPU_ReadMem(4 bytes @ 0x40021004) -- Data:  0A 00 10 04  returns 0x00 (0001ms, 0683ms total)
T116C 017:355 JLINK_ReadMem (0x40021004, 0x0004 Bytes, ...) -- CPU_ReadMem(4 bytes @ 0x40021004) -- Data:  0A 00 10 04  returns 0x00 (0001ms, 0684ms total)
T116C 017:356 JLINK_ReadMem (0x40021004, 0x0004 Bytes, ...) -- CPU_ReadMem(4 bytes @ 0x40021004) -- Data:  0A 00 10 04  returns 0x00 (0001ms, 0685ms total)
T116C 017:357 JLINK_ReadMem (0x40021004, 0x0004 Bytes, ...) -- CPU_ReadMem(4 bytes @ 0x40021004) -- Data:  0A 00 10 04  returns 0x00 (0001ms, 0686ms total)
T116C 017:358 JLINK_ReadMem (0x40021004, 0x0004 Bytes, ...) -- CPU_ReadMem(4 bytes @ 0x40021004) -- Data:  0A 00 10 04  returns 0x00 (0001ms, 0687ms total)
T116C 017:359 JLINK_ReadMem (0x40021004, 0x0004 Bytes, ...) -- CPU_ReadMem(4 bytes @ 0x40021004) -- Data:  0A 00 10 04  returns 0x00 (0001ms, 0688ms total)
T116C 017:366 JLINK_ReadMem (0x40021018, 0x0004 Bytes, ...) -- CPU_ReadMem(4 bytes @ 0x40021018) -- Data:  1D 50 00 00  returns 0x00 (0001ms, 0689ms total)
T116C 017:367 JLINK_ReadMem (0x40021018, 0x0004 Bytes, ...) -- CPU_ReadMem(4 bytes @ 0x40021018) -- Data:  1D 50 00 00  returns 0x00 (0001ms, 0690ms total)
T116C 017:368 JLINK_ReadMem (0x40021018, 0x0004 Bytes, ...) -- CPU_ReadMem(4 bytes @ 0x40021018) -- Data:  1D 50 00 00  returns 0x00 (0001ms, 0691ms total)
T116C 017:369 JLINK_ReadMem (0x40021018, 0x0004 Bytes, ...) -- CPU_ReadMem(4 bytes @ 0x40021018) -- Data:  1D 50 00 00  returns 0x00 (0000ms, 0691ms total)
T116C 017:369 JLINK_ReadMem (0x40021018, 0x0004 Bytes, ...) -- CPU_ReadMem(4 bytes @ 0x40021018) -- Data:  1D 50 00 00  returns 0x00 (0001ms, 0692ms total)
T116C 017:370 JLINK_ReadMem (0x40021018, 0x0004 Bytes, ...) -- CPU_ReadMem(4 bytes @ 0x40021018) -- Data:  1D 50 00 00  returns 0x00 (0001ms, 0693ms total)
T116C 017:371 JLINK_ReadMem (0x40021018, 0x0004 Bytes, ...) -- CPU_ReadMem(4 bytes @ 0x40021018) -- Data:  1D 50 00 00  returns 0x00 (0001ms, 0694ms total)
T116C 017:372 JLINK_ReadMem (0x40021018, 0x0004 Bytes, ...) -- CPU_ReadMem(4 bytes @ 0x40021018) -- Data:  1D 50 00 00  returns 0x00 (0001ms, 0695ms total)
T116C 017:373 JLINK_ReadMem (0x40021018, 0x0004 Bytes, ...) -- CPU_ReadMem(4 bytes @ 0x40021018) -- Data:  1D 50 00 00  returns 0x00 (0001ms, 0696ms total)
T116C 017:374 JLINK_ReadMem (0x40021018, 0x0004 Bytes, ...) -- CPU_ReadMem(4 bytes @ 0x40021018) -- Data:  1D 50 00 00  returns 0x00 (0001ms, 0697ms total)
T116C 017:375 JLINK_ReadMem (0x40021018, 0x0004 Bytes, ...) -- CPU_ReadMem(4 bytes @ 0x40021018) -- Data:  1D 50 00 00  returns 0x00 (0001ms, 0698ms total)
T116C 017:376 JLINK_ReadMem (0x40021018, 0x0004 Bytes, ...) -- CPU_ReadMem(4 bytes @ 0x40021018) -- Data:  1D 50 00 00  returns 0x00 (0000ms, 0698ms total)
T116C 017:376 JLINK_ReadMem (0x40021018, 0x0004 Bytes, ...) -- CPU_ReadMem(4 bytes @ 0x40021018) -- Data:  1D 50 00 00  returns 0x00 (0001ms, 0699ms total)
T116C 017:377 JLINK_ReadMem (0x40021018, 0x0004 Bytes, ...) -- CPU_ReadMem(4 bytes @ 0x40021018) -- Data:  1D 50 00 00  returns 0x00 (0001ms, 0700ms total)
T116C 017:378 JLINK_ReadMem (0x40021018, 0x0004 Bytes, ...) -- CPU_ReadMem(4 bytes @ 0x40021018) -- Data:  1D 50 00 00  returns 0x00 (0001ms, 0701ms total)
T116C 017:379 JLINK_ReadMem (0x40021018, 0x0004 Bytes, ...) -- CPU_ReadMem(4 bytes @ 0x40021018) -- Data:  1D 50 00 00  returns 0x00 (0001ms, 0702ms total)
T116C 017:384 JLINK_ReadMem (0x4002101C, 0x0004 Bytes, ...) -- CPU_ReadMem(4 bytes @ 0x4002101C) -- Data:  02 00 00 18  returns 0x00 (0001ms, 0703ms total)
T116C 017:385 JLINK_ReadMem (0x4002101C, 0x0004 Bytes, ...) -- CPU_ReadMem(4 bytes @ 0x4002101C) -- Data:  02 00 00 18  returns 0x00 (0001ms, 0704ms total)
T116C 017:386 JLINK_ReadMem (0x4002101C, 0x0004 Bytes, ...) -- CPU_ReadMem(4 bytes @ 0x4002101C) -- Data:  02 00 00 18  returns 0x00 (0000ms, 0704ms total)
T116C 017:386 JLINK_ReadMem (0x4002101C, 0x0004 Bytes, ...) -- CPU_ReadMem(4 bytes @ 0x4002101C) -- Data:  02 00 00 18  returns 0x00 (0001ms, 0705ms total)
T116C 017:387 JLINK_ReadMem (0x4002101C, 0x0004 Bytes, ...) -- CPU_ReadMem(4 bytes @ 0x4002101C) -- Data:  02 00 00 18  returns 0x00 (0001ms, 0706ms total)
T116C 017:388 JLINK_ReadMem (0x4002101C, 0x0004 Bytes, ...) -- CPU_ReadMem(4 bytes @ 0x4002101C) -- Data:  02 00 00 18  returns 0x00 (0001ms, 0707ms total)
T116C 017:389 JLINK_ReadMem (0x4002101C, 0x0004 Bytes, ...) -- CPU_ReadMem(4 bytes @ 0x4002101C) -- Data:  02 00 00 18  returns 0x00 (0001ms, 0708ms total)
T116C 017:390 JLINK_ReadMem (0x4002101C, 0x0004 Bytes, ...) -- CPU_ReadMem(4 bytes @ 0x4002101C) -- Data:  02 00 00 18  returns 0x00 (0001ms, 0709ms total)
T116C 017:391 JLINK_ReadMem (0x4002101C, 0x0004 Bytes, ...) -- CPU_ReadMem(4 bytes @ 0x4002101C) -- Data:  02 00 00 18  returns 0x00 (0001ms, 0710ms total)
T116C 017:392 JLINK_ReadMem (0x4002101C, 0x0004 Bytes, ...) -- CPU_ReadMem(4 bytes @ 0x4002101C) -- Data:  02 00 00 18  returns 0x00 (0001ms, 0711ms total)
T116C 017:393 JLINK_ReadMem (0x4002101C, 0x0004 Bytes, ...) -- CPU_ReadMem(4 bytes @ 0x4002101C) -- Data:  02 00 00 18  returns 0x00 (0001ms, 0712ms total)
T116C 017:394 JLINK_ReadMem (0x4002101C, 0x0004 Bytes, ...) -- CPU_ReadMem(4 bytes @ 0x4002101C) -- Data:  02 00 00 18  returns 0x00 (0001ms, 0713ms total)
T116C 017:395 JLINK_ReadMem (0x4002101C, 0x0004 Bytes, ...) -- CPU_ReadMem(4 bytes @ 0x4002101C) -- Data:  02 00 00 18  returns 0x00 (0000ms, 0713ms total)
T116C 017:395 JLINK_ReadMem (0x4002101C, 0x0004 Bytes, ...) -- CPU_ReadMem(4 bytes @ 0x4002101C) -- Data:  02 00 00 18  returns 0x00 (0001ms, 0714ms total)
T116C 017:396 JLINK_ReadMem (0x4002101C, 0x0004 Bytes, ...) -- CPU_ReadMem(4 bytes @ 0x4002101C) -- Data:  02 00 00 18  returns 0x00 (0001ms, 0715ms total)
T116C 017:397 JLINK_ReadMem (0x4002101C, 0x0004 Bytes, ...) -- CPU_ReadMem(4 bytes @ 0x4002101C) -- Data:  02 00 00 18  returns 0x00 (0001ms, 0716ms total)
T116C 017:398 JLINK_ReadMem (0x4002101C, 0x0004 Bytes, ...) -- CPU_ReadMem(4 bytes @ 0x4002101C) -- Data:  02 00 00 18  returns 0x00 (0001ms, 0717ms total)
T116C 017:399 JLINK_ReadMem (0x4002101C, 0x0004 Bytes, ...) -- CPU_ReadMem(4 bytes @ 0x4002101C) -- Data:  02 00 00 18  returns 0x00 (0001ms, 0718ms total)
T116C 017:400 JLINK_ReadMem (0x4002101C, 0x0004 Bytes, ...) -- CPU_ReadMem(4 bytes @ 0x4002101C) -- Data:  02 00 00 18  returns 0x00 (0001ms, 0719ms total)
T116C 017:401 JLINK_ReadMem (0x4002101C, 0x0004 Bytes, ...) -- CPU_ReadMem(4 bytes @ 0x4002101C) -- Data:  02 00 00 18  returns 0x00 (0001ms, 0720ms total)
T116C 017:402 JLINK_ReadMem (0x4002101C, 0x0004 Bytes, ...) -- CPU_ReadMem(4 bytes @ 0x4002101C) -- Data:  02 00 00 18  returns 0x00 (0001ms, 0721ms total)
T116C 017:403 JLINK_ReadMem (0x4002101C, 0x0004 Bytes, ...) -- CPU_ReadMem(4 bytes @ 0x4002101C) -- Data:  02 00 00 18  returns 0x00 (0001ms, 0722ms total)
T116C 017:404 JLINK_ReadMem (0x4002101C, 0x0004 Bytes, ...) -- CPU_ReadMem(4 bytes @ 0x4002101C) -- Data:  02 00 00 18  returns 0x00 (0000ms, 0722ms total)
T116C 017:408 JLINK_ReadMem (0x08002028, 0x003C Bytes, ...) -- Read from flash cache (60 bytes @ 0x08002028) -- Merging zombie BP[0]: 0xA10D @ 0x08002028 -- Data:  0D A1 01 20 FE F7 F0 FD 70 BD 00 00 9D 23 00 08 ...  returns 0x00 (0000ms, 0722ms total)
T0574 019:639 JLINK_Step() -- Merging zombie BP[0]: 0xA10D @ 0x08002028 -- Merging zombie BP[0]: 0xA10D @ 0x08002028 -- Simulated  returns 0x00 (0003ms, 0725ms total)
T0574 019:642 JLINK_ReadReg(R15 (PC))  returns 0x0800202A (0000ms, 0725ms total)
T0574 019:642 JLINK_ReadReg(XPSR)  returns 0x61000000 (0000ms, 0725ms total)
T0574 019:642 JLINK_Step() -- Read from flash cache (2 bytes @ 0x0800202A) -- Simulated  returns 0x00 (0000ms, 0725ms total)
T0574 019:642 JLINK_ReadReg(R15 (PC))  returns 0x0800202C (0000ms, 0725ms total)
T0574 019:642 JLINK_ReadReg(XPSR)  returns 0x21000000 (0000ms, 0725ms total)
T0574 019:642 JLINK_SetBPEx(Addr = 0x08002030, Type = 0xFFFFFFF2)  returns 0x00000005 (0000ms, 0725ms total)
T0574 019:642 JLINK_SetBPEx(Addr = 0x08002028, Type = 0xFFFFFFF2)  returns 0x00000006 (0000ms, 0725ms total)
T0574 019:642 JLINK_Go() -- Read from flash cache (2 bytes @ 0x0800202C) -- Read from flash cache (2 bytes @ 0x0800202E) -- Simulated -- CPU_ReadMem(64 bytes @ 0x08000C00) -- Updating C cache (64 bytes @ 0x08000C00) -- Read from C cache (2 bytes @ 0x08000C10) -- CPU_WriteMem(16 bytes @ 0x200006E8) -- Simulated -- Read from C cache (2 bytes @ 0x08000C12) -- Simulated -- Read from C cache (2 bytes @ 0x08000C14) -- Simulated -- Read from C cache (2 bytes @ 0x08000C16) -- Simulated
 -- Read from C cache (2 bytes @ 0x08000C18) -- Read from C cache (2 bytes @ 0x08000C1A) -- Simulated -- CPU_ReadMem(64 bytes @ 0x08000B80) -- Updating C cache (64 bytes @ 0x08000B80) -- Read from C cache (2 bytes @ 0x08000BB4) -- CPU_WriteMem(8 bytes @ 0x200006E0) -- Simulated -- Read from C cache (2 bytes @ 0x08000BB6) -- Simulated -- Read from C cache (2 bytes @ 0x08000BB8) -- Simulated -- Read from C cache (2 bytes @ 0x08000BBA) -- Simulated -- Read from flash cache (1024 bytes @ 0x08002000)
 -- Programming range 0x08002000 - 0x080023FF (  1 Sector, 1024 Bytes) -- CPU clock frequency: 23976 kHz (0204ms, 0929ms total)
T0574 019:946 JLINK_IsHalted()  returns FALSE (0000ms, 0929ms total)
T0574 020:046 JLINK_IsHalted()  returns FALSE (0001ms, 0930ms total)
T0574 020:147 JLINK_IsHalted()  returns FALSE (0001ms, 0930ms total)
T0574 020:248 JLINK_IsHalted()  returns FALSE (0001ms, 0930ms total)
T0574 020:349 JLINK_IsHalted()  returns FALSE (0001ms, 0930ms total)
T0574 020:450 JLINK_IsHalted()  returns FALSE (0001ms, 0930ms total)
T0574 020:551 JLINK_IsHalted()  returns FALSE (0001ms, 0930ms total)
T0574 020:652 JLINK_IsHalted()  returns FALSE (0001ms, 0930ms total)
T0574 020:753 JLINK_IsHalted()  returns FALSE (0001ms, 0930ms total)
T0574 020:854 JLINK_IsHalted()  returns FALSE (0001ms, 0930ms total)
T0574 020:955 JLINK_IsHalted()  returns FALSE (0001ms, 0930ms total)
T0574 021:056 JLINK_IsHalted()  returns FALSE (0000ms, 0929ms total)
T0574 021:156 JLINK_IsHalted()  returns FALSE (0001ms, 0930ms total)
T0574 021:257 JLINK_IsHalted()  returns FALSE (0001ms, 0930ms total)
T0574 021:358 JLINK_IsHalted()  returns FALSE (0000ms, 0929ms total)
T0574 021:459 JLINK_IsHalted()  returns FALSE (0000ms, 0929ms total)
T0574 021:560 JLINK_IsHalted()  returns FALSE (0001ms, 0930ms total)
T0574 021:661 JLINK_IsHalted()  returns FALSE (0001ms, 0930ms total)
T0574 021:762 JLINK_IsHalted()  returns FALSE (0000ms, 0929ms total)
T0574 021:863 JLINK_IsHalted()  returns FALSE (0000ms, 0929ms total)
T0574 021:964 JLINK_IsHalted()  returns FALSE (0000ms, 0929ms total)
T0574 022:064 JLINK_IsHalted()  returns FALSE (0000ms, 0929ms total)
T0574 022:164 JLINK_IsHalted()  returns FALSE (0000ms, 0929ms total)
T0574 022:264 JLINK_IsHalted()  returns FALSE (0000ms, 0929ms total)
T0574 022:364 JLINK_IsHalted()  returns FALSE (0000ms, 0929ms total)
T0574 022:464 JLINK_IsHalted()  returns FALSE (0000ms, 0929ms total)
T0574 022:564 JLINK_IsHalted()  returns FALSE (0000ms, 0929ms total)
T0574 022:664 JLINK_IsHalted()  returns FALSE (0001ms, 0930ms total)
T0574 022:765 JLINK_IsHalted()  returns FALSE (0000ms, 0929ms total)
T0574 022:865 JLINK_IsHalted()  returns FALSE (0000ms, 0929ms total)
T0574 022:965 JLINK_IsHalted()  returns FALSE (0000ms, 0929ms total)
T0574 023:065 JLINK_IsHalted()  returns FALSE (0000ms, 0929ms total)
T0574 023:165 JLINK_IsHalted()  returns FALSE (0000ms, 0929ms total)
T0574 023:265 JLINK_IsHalted()  returns FALSE (0000ms, 0929ms total)
T0574 023:365 JLINK_IsHalted()  returns FALSE (0000ms, 0929ms total)
T0574 023:465 JLINK_IsHalted()  returns FALSE (0000ms, 0929ms total)
T0574 023:565 JLINK_IsHalted()  returns FALSE (0000ms, 0929ms total)
T0574 023:665 JLINK_IsHalted()  returns FALSE (0001ms, 0930ms total)
T0574 023:766 JLINK_IsHalted()  returns FALSE (0000ms, 0929ms total)
T0574 023:866 JLINK_IsHalted()  returns FALSE (0000ms, 0929ms total)
T0574 023:966 JLINK_IsHalted()  returns FALSE (0000ms, 0929ms total)
T0574 024:066 JLINK_IsHalted()  returns FALSE (0000ms, 0929ms total)
T0574 024:166 JLINK_IsHalted()  returns FALSE (0000ms, 0929ms total)
T0574 024:266 JLINK_IsHalted()  returns FALSE (0000ms, 0929ms total)
T0574 024:366 JLINK_IsHalted()  returns FALSE (0001ms, 0930ms total)
T0574 024:467 JLINK_IsHalted()  returns FALSE (0000ms, 0929ms total)
T0574 024:567 JLINK_IsHalted()  returns FALSE (0000ms, 0929ms total)
T0574 024:667 JLINK_IsHalted()  returns FALSE (0001ms, 0930ms total)
T0574 024:768 JLINK_IsHalted()  returns FALSE (0000ms, 0929ms total)
T0574 024:868 JLINK_IsHalted()  returns FALSE (0001ms, 0930ms total)
T0574 024:969 JLINK_IsHalted()  returns FALSE (0001ms, 0930ms total)
T0574 025:070 JLINK_IsHalted()  returns FALSE (0000ms, 0929ms total)
T0574 025:170 JLINK_IsHalted()  returns FALSE (0001ms, 0930ms total)
T0574 025:271 JLINK_IsHalted()  returns FALSE (0000ms, 0929ms total)
T0574 025:371 JLINK_IsHalted()  returns FALSE (0000ms, 0929ms total)
T0574 025:471 JLINK_IsHalted()  returns FALSE (0001ms, 0930ms total)
T0574 025:572 JLINK_IsHalted()  returns FALSE (0001ms, 0930ms total)
T0574 025:673 JLINK_IsHalted()  returns FALSE (0001ms, 0930ms total)
T0574 025:774 JLINK_IsHalted()  returns FALSE (0000ms, 0929ms total)
T0574 025:874 JLINK_IsHalted()  returns FALSE (0001ms, 0930ms total)
T0574 025:975 JLINK_IsHalted()  returns FALSE (0001ms, 0930ms total)
T0574 026:076 JLINK_IsHalted()  returns FALSE (0001ms, 0930ms total)
T0574 026:177 JLINK_IsHalted()  returns FALSE (0001ms, 0930ms total)
T0574 026:278 JLINK_IsHalted()  returns FALSE (0000ms, 0929ms total)
T0574 026:379 JLINK_IsHalted()  returns FALSE (0001ms, 0930ms total)
T0574 026:480 JLINK_IsHalted()  returns FALSE (0001ms, 0930ms total)
T0574 026:581 JLINK_IsHalted()  returns FALSE (0000ms, 0929ms total)
T0574 026:682 JLINK_IsHalted()  returns FALSE (0001ms, 0930ms total)
T0574 026:783 JLINK_IsHalted()  returns FALSE (0000ms, 0929ms total)
T0574 026:883 JLINK_IsHalted()  returns FALSE (0000ms, 0929ms total)
T0574 026:983 JLINK_IsHalted()  returns FALSE (0000ms, 0929ms total)
T0574 027:083 JLINK_IsHalted()  returns FALSE (0000ms, 0929ms total)
T0574 027:183 JLINK_IsHalted()  returns FALSE (0000ms, 0929ms total)
T0574 027:283 JLINK_IsHalted()  returns FALSE (0000ms, 0929ms total)
T0574 027:383 JLINK_IsHalted()  returns FALSE (0000ms, 0929ms total)
T0574 027:483 JLINK_IsHalted()  returns FALSE (0000ms, 0929ms total)
T0574 027:583 JLINK_IsHalted()  returns FALSE (0000ms, 0929ms total)
T0574 027:683 JLINK_IsHalted()  returns FALSE (0001ms, 0930ms total)
T0574 027:784 JLINK_IsHalted()  returns TRUE (0005ms, 0934ms total)
T0574 027:789 JLINK_Halt()  returns 0x00 (0000ms, 0929ms total)
T0574 027:789 JLINK_IsHalted()  returns TRUE (0000ms, 0929ms total)
T0574 027:789 JLINK_IsHalted()  returns TRUE (0000ms, 0929ms total)
T0574 027:789 JLINK_IsHalted()  returns TRUE (0000ms, 0929ms total)
T0574 027:789 JLINK_ReadReg(R15 (PC))  returns 0x08002030 (0000ms, 0929ms total)
T0574 027:789 JLINK_ReadReg(XPSR)  returns 0x61000000 (0000ms, 0929ms total)
T0574 027:789 JLINK_ClrBPEx(BPHandle = 0x00000005)  returns 0x00 (0000ms, 0929ms total)
T0574 027:789 JLINK_ClrBPEx(BPHandle = 0x00000006)  returns 0x00 (0000ms, 0929ms total)
T0574 027:789 JLINK_ReadMemU32(0xE000ED30, 0x0001 Items, ...) -- CPU_ReadMem(4 bytes @ 0xE000ED30) -- Data:  03 00 00 00  returns 0x01 (0001ms, 0930ms total)
T0574 027:791 JLINK_ReadReg(R0)  returns 0x00000010 (0000ms, 0930ms total)
T0574 027:791 JLINK_ReadReg(R1)  returns 0x00000400 (0000ms, 0930ms total)
T0574 027:791 JLINK_ReadReg(R2)  returns 0x00000000 (0000ms, 0930ms total)
T0574 027:791 JLINK_ReadReg(R3)  returns 0x10031000 (0000ms, 0930ms total)
T0574 027:791 JLINK_ReadReg(R4)  returns 0x0000000B (0000ms, 0930ms total)
